
T02F8 000:055 SEGGER J-Link V4.98e Log File (0001ms, 0027ms total)
T02F8 000:055 DLL Compiled: May  5 2015 11:00:52 (0001ms, 0027ms total)
T02F8 000:055 Logging started @ 2015-06-11 23:25 (0001ms, 0027ms total)
T02F8 000:056 JLINK_SetWarnOutHandler(...) (0000ms, 0027ms total)
T02F8 000:056 JLINK_OpenEx(...)
Firmware: J-Link ARM V8 compiled Nov 28 2014 13:44:46
Hardware: V8.00
S/N: 158005115  returns O.K. (0027ms, 0054ms total)
T02F8 000:083 JLINK_SetErrorOutHandler(...) (0000ms, 0054ms total)
T02F8 000:083 JLINK_ExecCommand("ProjectFile = "D:\Documents\Dropbox\Impedancometr\JLinkSettings.ini"", ...)  returns 0x00 (0001ms, 0055ms total)
T02F8 000:084 JLINK_ExecCommand("Device = LPC1758", ...)Device "LPC1758" selected.  returns 0x00 (0001ms, 0056ms total)
T02F8 000:085 JLINK_ExecCommand("DisableConnectionTimeout", ...)  returns 0x01 (0000ms, 0056ms total)
T02F8 000:085 JLINK_GetHardwareVersion()  returns 0x13880 (0000ms, 0056ms total)
T02F8 000:085 JLINK_GetDLLVersion()  returns 49805 (0000ms, 0056ms total)
T02F8 000:085 JLINK_GetFirmwareString(...) (0000ms, 0056ms total)
T02F8 000:086 JLINK_GetDLLVersion()  returns 49805 (0000ms, 0056ms total)
T02F8 000:086 JLINK_GetCompileDateTime() (0000ms, 0056ms total)
T02F8 000:086 JLINK_GetFirmwareString(...) (0000ms, 0056ms total)
T02F8 000:086 JLINK_GetHardwareVersion()  returns 0x13880 (0000ms, 0056ms total)
T02F8 000:086 JLINK_TIF_Select(JLINKARM_TIF_JTAG)  returns 0x00 (0007ms, 0063ms total)
T02F8 000:094 JLINK_SetSpeed(10000) (0000ms, 0064ms total)
T02F8 000:094 JLINK_GetIdData(...) >0x2F8 JTAG>TotalIRLen = 4, IRPrint = 0x01 >0x30 JTAG> >0x210 JTAG> >0x70 JTAG> >0x40 JTAG> >0x40 JTAG> >0x40 JTAG> >0x48 JTAG> >0x78 JTAG> >0x40 JTAG> >0x30 JTAG> >0x40 JTAG> >0x40 JTAG> >0x30 JTAG> >0x40 JTAG> >0x48 JTAG>Found Cortex-M3 r2p0, Little endian. -- CPU_WriteMem(4 bytes @ 0xE0002000) -- CPU_ReadMem(4 bytes @ 0xE000EDF0) -- CPU_ReadMem(4 bytes @ 0xE0002000)FPUnit: 6 code (BP) slots and 2 literal slots -- CPU_ReadMem(4 bytes @ 0xE000EDFC)
 -- CPU_ReadMem(4 bytes @ 0xE0001000) -- CPU_WriteMem(4 bytes @ 0xE0001000) -- CPU_ReadMem(4 bytes @ 0xE000ED88) -- CPU_WriteMem(4 bytes @ 0xE000ED88) -- CPU_ReadMem(4 bytes @ 0xE000ED88) -- CPU_WriteMem(4 bytes @ 0xE000ED88)CoreSight components:ROMTbl 0 @ E00FF000 -- CPU_ReadMem(16 bytes @ 0xE00FF000) -- CPU_ReadMem(16 bytes @ 0xE000EFF0) -- CPU_ReadMem(16 bytes @ 0xE000EFE0)ROMTbl 0 [0]: FFF0F000, CID: B105E00D, PID: 002BB000 SCS -- CPU_ReadMem(16 bytes @ 0xE0001FF0)
 -- CPU_ReadMem(16 bytes @ 0xE0001FE0)ROMTbl 0 [1]: FFF02000, CID: B105E00D, PID: 002BB002 DWT -- CPU_ReadMem(16 bytes @ 0xE0002FF0) -- CPU_ReadMem(16 bytes @ 0xE0002FE0)ROMTbl 0 [2]: FFF03000, CID: B105E00D, PID: 002BB003 FPB -- CPU_ReadMem(16 bytes @ 0xE0000FF0) -- CPU_ReadMem(16 bytes @ 0xE0000FE0)ROMTbl 0 [3]: FFF01000, CID: B105E00D, PID: 002BB001 ITM -- CPU_ReadMem(16 bytes @ 0xE00FF010) -- CPU_ReadMem(16 bytes @ 0xE0040FF0) -- CPU_ReadMem(16 bytes @ 0xE0040FE0)
ROMTbl 0 [4]: FFF41000, CID: B105900D, PID: 002BB923 TPIU-Lite -- CPU_ReadMem(16 bytes @ 0xE0041FF0) -- CPU_ReadMem(16 bytes @ 0xE0041FE0)ROMTbl 0 [5]: FFF42000, CID: B105900D, PID: 002BB924 ETM-M3 ScanLen=4 NumDevices=1 aId[0]=0x4BA00477 aIrRead[0]=0 aScanLen[0]=0 aScanRead[0]=0 (0050ms, 0114ms total)
T02F8 000:144 JLINK_JTAG_GetDeviceID(DeviceIndex = 0)  returns 0x4BA00477 (0000ms, 0114ms total)
T02F8 000:144 JLINK_JTAG_GetDeviceInfo(DeviceIndex = 0)  returns 0x00 (0000ms, 0114ms total)
T02F8 000:144 JLINK_GetDLLVersion()  returns 49805 (0000ms, 0114ms total)
T02F8 000:144 JLINK_CORE_GetFound()  returns 0x30000FF (0000ms, 0114ms total)
T02F8 000:144 JLINK_GetDebugInfo(0x100) -- Value=0xE00FF003  returns 0x00 (0000ms, 0114ms total)
T02F8 000:144 JLINK_ReadMem (0xE00FF000, 0x0020 Bytes, ...) -- CPU is running -- CPU_ReadMem(32 bytes @ 0xE00FF000) - Data: 03 F0 F0 FF 03 20 F0 FF 03 30 F0 FF 03 10 F0 FF ...  returns 0x00 (0001ms, 0115ms total)
T02F8 000:145 JLINK_ReadMem (0xE000EFF0, 0x0010 Bytes, ...) -- CPU is running -- CPU_ReadMem(16 bytes @ 0xE000EFF0) - Data: 0D 00 00 00 E0 00 00 00 05 00 00 00 B1 00 00 00  returns 0x00 (0001ms, 0116ms total)
T02F8 000:146 JLINK_ReadMem (0xE000EFD0, 0x0020 Bytes, ...) -- CPU is running -- CPU_ReadMem(32 bytes @ 0xE000EFD0) - Data: 04 00 00 00 00 00 00 00 00 00 00 00 00 00 00 00 ...  returns 0x00 (0000ms, 0116ms total)
T02F8 000:146 JLINK_ReadMem (0xE0001FF0, 0x0010 Bytes, ...) -- CPU is running -- CPU_ReadMem(16 bytes @ 0xE0001FF0) - Data: 0D 00 00 00 E0 00 00 00 05 00 00 00 B1 00 00 00  returns 0x00 (0001ms, 0117ms total)
T02F8 000:147 JLINK_ReadMem (0xE0001FD0, 0x0020 Bytes, ...) -- CPU is running -- CPU_ReadMem(32 bytes @ 0xE0001FD0) - Data: 04 00 00 00 00 00 00 00 00 00 00 00 00 00 00 00 ...  returns 0x00 (0002ms, 0119ms total)
T02F8 000:149 JLINK_ReadMem (0xE0002FF0, 0x0010 Bytes, ...) -- CPU is running -- CPU_ReadMem(16 bytes @ 0xE0002FF0) - Data: 0D 00 00 00 E0 00 00 00 05 00 00 00 B1 00 00 00  returns 0x00 (0001ms, 0120ms total)
T02F8 000:150 JLINK_ReadMem (0xE0002FD0, 0x0020 Bytes, ...) -- CPU is running -- CPU_ReadMem(32 bytes @ 0xE0002FD0) - Data: 04 00 00 00 00 00 00 00 00 00 00 00 00 00 00 00 ...  returns 0x00 (0001ms, 0121ms total)
T02F8 000:151 JLINK_ReadMem (0xE0000FF0, 0x0010 Bytes, ...) -- CPU is running -- CPU_ReadMem(16 bytes @ 0xE0000FF0) - Data: 0D 00 00 00 E0 00 00 00 05 00 00 00 B1 00 00 00  returns 0x00 (0000ms, 0121ms total)
T02F8 000:151 JLINK_ReadMem (0xE0000FD0, 0x0020 Bytes, ...) -- CPU is running -- CPU_ReadMem(32 bytes @ 0xE0000FD0) - Data: 04 00 00 00 00 00 00 00 00 00 00 00 00 00 00 00 ...  returns 0x00 (0002ms, 0123ms total)
T02F8 000:153 JLINK_ReadMem (0xE0040FF0, 0x0010 Bytes, ...) -- CPU is running -- CPU_ReadMem(16 bytes @ 0xE0040FF0) - Data: 0D 00 00 00 90 00 00 00 05 00 00 00 B1 00 00 00  returns 0x00 (0000ms, 0123ms total)
T02F8 000:153 JLINK_ReadMem (0xE0040FD0, 0x0020 Bytes, ...) -- CPU is running -- CPU_ReadMem(32 bytes @ 0xE0040FD0) - Data: 04 00 00 00 00 00 00 00 00 00 00 00 00 00 00 00 ...  returns 0x00 (0002ms, 0125ms total)
T02F8 000:155 JLINK_ReadMem (0xE0041FF0, 0x0010 Bytes, ...) -- CPU is running -- CPU_ReadMem(16 bytes @ 0xE0041FF0) - Data: 0D 00 00 00 90 00 00 00 05 00 00 00 B1 00 00 00  returns 0x00 (0000ms, 0125ms total)
T02F8 000:155 JLINK_ReadMem (0xE0041FD0, 0x0020 Bytes, ...) -- CPU is running -- CPU_ReadMem(32 bytes @ 0xE0041FD0) - Data: 04 00 00 00 00 00 00 00 00 00 00 00 00 00 00 00 ...  returns 0x00 (0001ms, 0126ms total)
T02F8 000:156 JLINK_ReadMemU32(0xE000ED00, 0x0001 Items, ...) -- CPU is running -- CPU_ReadMem(4 bytes @ 0xE000ED00) - Data: 30 C2 2F 41  returns 0x01 (0002ms, 0128ms total)
T02F8 000:158 JLINK_SetResetType(JLINKARM_RESET_TYPE_NORMAL)  returns JLINKARM_RESET_TYPE_HALT_WP (0000ms, 0128ms total)
T02F8 000:158 JLINK_Reset() -- CPU is running -- CPU_WriteMem(4 bytes @ 0xE000EDF0) -- CPU is running -- CPU_WriteMem(4 bytes @ 0xE000EDFC) -- CPU is running -- CPU_WriteMem(4 bytes @ 0xE000ED0C) -- CPU is running -- CPU_ReadMem(4 bytes @ 0xE000EDF0) -- CPU is running -- CPU_ReadMem(4 bytes @ 0xE000EDF0) -- CPU is running -- CPU_WriteMem(4 bytes @ 0xE000EDF0) -- CPU is running -- CPU_WriteMem(4 bytes @ 0xE000EDFC) -- CPU is running -- CPU_ReadMem(4 bytes @ 0xE000EDF0) >0x78 JTAG> >0x40 JTAG> >0x30 JTAG>
 >0x40 JTAG> >0x48 JTAG> >0x40 JTAG> -- CPU_WriteMem(4 bytes @ 0xE000EDFC) -- CPU_WriteMem(4 bytes @ 0xE0001028) -- CPU_WriteMem(4 bytes @ 0xE0001038) -- CPU_WriteMem(4 bytes @ 0xE0001048) -- CPU_WriteMem(4 bytes @ 0xE0001058) -- CPU_WriteMem(4 bytes @ 0xE000EDFC) -- CPU_WriteMem(4 bytes @ 0xE0001028) -- CPU_WriteMem(4 bytes @ 0xE0001028) -- CPU_WriteMem(4 bytes @ 0xE000EDFC) -- CPU_WriteMem(4 bytes @ 0xE0001028) -- CPU_WriteMem(4 bytes @ 0xE0001028) -- CPU_WriteMem(4 bytes @ 0xE000EDFC)
 -- CPU_WriteMem(4 bytes @ 0xE0001028) -- CPU_WriteMem(4 bytes @ 0xE0001028) -- CPU_WriteMem(4 bytes @ 0xE000EDFC) -- CPU_WriteMem(4 bytes @ 0xE0001028) -- CPU_WriteMem(4 bytes @ 0xE0001028) -- CPU_WriteMem(4 bytes @ 0xE000EDFC) -- CPU_WriteMem(4 bytes @ 0xE0001050) -- CPU_WriteMem(4 bytes @ 0xE0001054) -- CPU_WriteMem(4 bytes @ 0xE0001058) -- CPU_ReadMem(4 bytes @ 0xE0001000) -- CPU_WriteMem(4 bytes @ 0xE000EDFC) -- CPU_WriteMem(4 bytes @ 0xE0001058) -- CPU_ReadMem(4 bytes @ 0x00000004)
 -- CPU_ReadMem(4 bytes @ 0xE0002000) -- CPU_ReadMem(4 bytes @ 0xE0002008) -- CPU_ReadMem(4 bytes @ 0xE000200C) -- CPU_ReadMem(4 bytes @ 0xE0002010) -- CPU_ReadMem(4 bytes @ 0xE0002014) -- CPU_ReadMem(4 bytes @ 0xE0002018) -- CPU_ReadMem(4 bytes @ 0xE000201C) -- CPU_WriteMem(4 bytes @ 0xE0002000) -- CPU_WriteMem(4 bytes @ 0xE0002008) -- CPU_WriteMem(4 bytes @ 0xE000200C) -- CPU_WriteMem(4 bytes @ 0xE0002010) -- CPU_WriteMem(4 bytes @ 0xE0002014) -- CPU_WriteMem(4 bytes @ 0xE0002018)
 -- CPU_WriteMem(4 bytes @ 0xE000201C) -- CPU_ReadMem(4 bytes @ 0xE0001000) -- CPU_ReadMem(4 bytes @ 0x400FC040) -- CPU_WriteMem(4 bytes @ 0xE0002000) -- CPU_WriteMem(4 bytes @ 0xE0002008) -- CPU_WriteMem(4 bytes @ 0xE000200C) -- CPU_WriteMem(4 bytes @ 0xE0002010) -- CPU_WriteMem(4 bytes @ 0xE0002014) -- CPU_WriteMem(4 bytes @ 0xE0002018) -- CPU_WriteMem(4 bytes @ 0xE000201C) -- CPU_WriteMem(4 bytes @ 0xE0002000) -- CPU_ReadMem(4 bytes @ 0xE000EDFC) -- CPU_ReadMem(4 bytes @ 0xE0001000)
 (0291ms, 0419ms total)
T02F8 000:449 JLINK_ReadReg(R15 (PC))  returns 0x00000180 (0000ms, 0419ms total)
T02F8 000:449 JLINK_ReadReg(XPSR)  returns 0x61000000 (0000ms, 0419ms total)
T02F8 000:449 JLINK_Halt()  returns 0x00 (0000ms, 0419ms total)
T02F8 000:449 JLINK_IsHalted()  returns TRUE (0000ms, 0419ms total)
T02F8 000:449 JLINK_ReadMemU32(0xE000EDF0, 0x0001 Items, ...) -- CPU_ReadMem(4 bytes @ 0xE000EDF0) - Data: 03 00 03 00  returns 0x01 (0001ms, 0420ms total)
T02F8 000:450 JLINK_WriteU32(0xE000EDF0, 0xA05F0003) -- CPU_WriteMem(4 bytes @ 0xE000EDF0)  returns 0x00 (0002ms, 0422ms total)
T02F8 000:452 JLINK_WriteU32(0xE000EDFC, 0x01000000) -- CPU_WriteMem(4 bytes @ 0xE000EDFC)  returns 0x00 (0001ms, 0423ms total)
T02F8 000:454 JLINK_GetHWStatus(...)  returns 0x00 (0000ms, 0423ms total)
T02F8 000:454 JLINK_GetNumBPUnits(Type = 0xFFFFFF00)  returns 0x06 (0000ms, 0423ms total)
T02F8 000:454 JLINK_GetNumBPUnits(Type = 0xF0)  returns 0x2000 (0000ms, 0423ms total)
T02F8 000:454 JLINK_GetNumWPUnits()  returns 0x04 (0000ms, 0423ms total)
T02F8 000:454 JLINK_GetSpeed()  returns 0x2580 (0000ms, 0423ms total)
T02F8 000:454 JLINK_ReadMemU32(0xE000E004, 0x0001 Items, ...) -- CPU_ReadMem(4 bytes @ 0xE000E004) - Data: 01 00 00 00  returns 0x01 (0002ms, 0425ms total)
T02F8 000:456 JLINK_ReadMemU32(0xE000E004, 0x0001 Items, ...) -- CPU_ReadMem(4 bytes @ 0xE000E004) - Data: 01 00 00 00  returns 0x01 (0001ms, 0426ms total)
T02F8 000:457 JLINK_WriteMem(0xE0001000, 0x001C Bytes, ...) - Data: 01 00 00 00 00 00 00 00 00 00 00 00 00 00 00 00 ... -- CPU_WriteMem(28 bytes @ 0xE0001000)  returns 0x1C (0002ms, 0428ms total)
T02F8 000:459 JLINK_ReadMem (0xE0001000, 0x001C Bytes, ...) -- CPU_ReadMem(28 bytes @ 0xE0001000) - Data: 01 00 00 40 00 00 00 00 00 00 00 00 00 00 00 00 ...  returns 0x00 (0001ms, 0429ms total)
T02F8 000:460 JLINK_ReadReg(R15 (PC))  returns 0x00000180 (0000ms, 0429ms total)
T02F8 000:460 JLINK_ReadReg(XPSR)  returns 0x61000000 (0000ms, 0429ms total)
T02F8 000:465 JLINK_WriteU8(0x400FC040, 0x01) -- CPU_WriteMem(1 bytes @ 0x400FC040)  returns 0x00 (0001ms, 0430ms total)
T02F8 000:535 JLINK_SetResetType(JLINKARM_RESET_TYPE_NORMAL)  returns JLINKARM_RESET_TYPE_HALT_WP (0000ms, 0430ms total)
T02F8 000:535 JLINK_Reset() -- CPU_WriteMem(4 bytes @ 0xE000EDF0) -- CPU_WriteMem(4 bytes @ 0xE000EDFC) -- CPU_WriteMem(4 bytes @ 0xE000ED0C) -- CPU_ReadMem(4 bytes @ 0xE000EDF0) -- CPU_ReadMem(4 bytes @ 0xE000EDF0) -- CPU_WriteMem(4 bytes @ 0xE000EDF0) -- CPU_WriteMem(4 bytes @ 0xE000EDFC) -- CPU is running -- CPU_ReadMem(4 bytes @ 0xE000EDF0) >0x78 JTAG> >0x40 JTAG> >0x30 JTAG> >0x40 JTAG> >0x48 JTAG> >0x40 JTAG> -- CPU_WriteMem(4 bytes @ 0xE000EDFC) -- CPU_WriteMem(4 bytes @ 0xE0001028)
 -- CPU_WriteMem(4 bytes @ 0xE0001038) -- CPU_WriteMem(4 bytes @ 0xE0001048) -- CPU_WriteMem(4 bytes @ 0xE0001058) -- CPU_WriteMem(4 bytes @ 0xE000EDFC) -- CPU_WriteMem(4 bytes @ 0xE000EDFC) -- CPU_WriteMem(4 bytes @ 0xE000EDFC) -- CPU_WriteMem(4 bytes @ 0xE000EDFC) -- CPU_WriteMem(4 bytes @ 0xE000EDFC) -- CPU_WriteMem(4 bytes @ 0xE0001050) -- CPU_WriteMem(4 bytes @ 0xE0001054) -- CPU_WriteMem(4 bytes @ 0xE0001058) -- CPU_ReadMem(4 bytes @ 0xE0001000) -- CPU_WriteMem(4 bytes @ 0xE000EDFC)
 -- CPU_WriteMem(4 bytes @ 0xE0001058) -- CPU_ReadMem(4 bytes @ 0x00000004) -- CPU_ReadMem(4 bytes @ 0xE0002000) -- CPU_ReadMem(4 bytes @ 0xE0002008) -- CPU_ReadMem(4 bytes @ 0xE000200C) -- CPU_ReadMem(4 bytes @ 0xE0002010) -- CPU_ReadMem(4 bytes @ 0xE0002014) -- CPU_ReadMem(4 bytes @ 0xE0002018) -- CPU_ReadMem(4 bytes @ 0xE000201C) -- CPU_WriteMem(4 bytes @ 0xE0002000) -- CPU_WriteMem(4 bytes @ 0xE0002008) -- CPU_WriteMem(4 bytes @ 0xE000200C) -- CPU_WriteMem(4 bytes @ 0xE0002010)
 -- CPU_WriteMem(4 bytes @ 0xE0002014) -- CPU_WriteMem(4 bytes @ 0xE0002018) -- CPU_WriteMem(4 bytes @ 0xE000201C) -- CPU_ReadMem(4 bytes @ 0xE0001000) -- CPU_ReadMem(4 bytes @ 0x400FC040) -- CPU_WriteMem(4 bytes @ 0xE0002000) -- CPU_WriteMem(4 bytes @ 0xE0002008) -- CPU_WriteMem(4 bytes @ 0xE000200C) -- CPU_WriteMem(4 bytes @ 0xE0002010) -- CPU_WriteMem(4 bytes @ 0xE0002014) -- CPU_WriteMem(4 bytes @ 0xE0002018) -- CPU_WriteMem(4 bytes @ 0xE000201C) -- CPU_WriteMem(4 bytes @ 0xE0002000)
 -- CPU_ReadMem(4 bytes @ 0xE000EDFC) -- CPU_ReadMem(4 bytes @ 0xE0001000) (0282ms, 0712ms total)
T02F8 000:817 JLINK_ReadReg(R15 (PC))  returns 0x00000180 (0001ms, 0713ms total)
T02F8 000:818 JLINK_ReadReg(XPSR)  returns 0x61000000 (0000ms, 0713ms total)
T02F8 000:818 JLINK_ReadMem (0x000000CC, 0x003C Bytes, ...) -- CPU_ReadMem(128 bytes @ 0x000000C0) -- Updating C cache (128 bytes @ 0x000000C0) -- Read from C cache (60 bytes @ 0x000000CC) - Data: 00 F0 02 F8 00 F0 47 F8 0A A0 90 E8 00 0C 82 44 ...  returns 0x00 (0002ms, 0715ms total)
T02F8 000:820 JLINK_ReadMem (0x00000108, 0x003C Bytes, ...) -- CPU_ReadMem(64 bytes @ 0x00000140) -- Updating C cache (64 bytes @ 0x00000140) -- Read from C cache (60 bytes @ 0x00000108) - Data: 10 3A 24 BF 78 C8 78 C1 FA D8 52 07 24 BF 30 C8 ...  returns 0x00 (0002ms, 0717ms total)
T02F8 000:822 JLINK_ReadMem (0x00000144, 0x003C Bytes, ...) -- Read from C cache (60 bytes @ 0x00000144) - Data: 77 85 00 20 70 47 1F B5 9D E8 03 00 03 F0 02 FA ...  returns 0x00 (0000ms, 0717ms total)
T02F8 000:823 JLINK_ReadMem (0x00000180, 0x003C Bytes, ...) -- CPU_ReadMem(64 bytes @ 0x00000180) -- Updating C cache (64 bytes @ 0x00000180) -- Read from C cache (60 bytes @ 0x00000180) - Data: 09 48 80 47 09 48 00 47 FE E7 FE E7 FE E7 FE E7 ...  returns 0x00 (0001ms, 0719ms total)
T02F8 001:576 JLINK_ReadMem (0x00068100, 0x0180 Bytes, ...) -- CPU_ReadMem(384 bytes @ 0x00068100) -- Updating C cache (384 bytes @ 0x00068100) -- Read from C cache (384 bytes @ 0x00068100) - Data: FF FF FF FF FF FF FF FF FF FF FF FF FF FF FF FF ...  returns 0x00 (0003ms, 0722ms total)
T02F8 001:584 JLINK_ReadMem (0x00070000, 0x00C0 Bytes, ...) -- CPU_ReadMem(192 bytes @ 0x00070000) -- Updating C cache (192 bytes @ 0x00070000) -- Read from C cache (192 bytes @ 0x00070000) - Data: FF FF FF FF FF FF FF FF FF FF FF FF FF FF FF FF ...  returns 0x00 (0003ms, 0725ms total)
T02F8 001:593 JLINK_ReadMem (0x00000000, 0x0150 Bytes, ...) -- CPU_ReadMem(192 bytes @ 0x00000000) -- Updating C cache (192 bytes @ 0x00000000) -- Read from C cache (336 bytes @ 0x00000000) - Data: 18 71 00 10 81 01 00 00 89 01 00 00 8B 01 00 00 ...  returns 0x00 (0001ms, 0726ms total)
T02F8 001:834 JLINK_ReadMem (0x00068000, 0x00F0 Bytes, ...) -- CPU_ReadMem(256 bytes @ 0x00068000) -- Updating C cache (256 bytes @ 0x00068000) -- Read from C cache (240 bytes @ 0x00068000) - Data: FF FF FF FF FF FF FF FF FF FF FF FF FF FF FF FF ...  returns 0x00 (0004ms, 0730ms total)
T0B1C 003:539 JLINK_SetBPEx(Addr = 0x00000498, Type = 0xFFFFFFF2)  returns 0x00000001 (0000ms, 0730ms total)
T0B1C 003:539 JLINK_SetBPEx(Addr = 0x000021DA, Type = 0xFFFFFFF2)  returns 0x00000002 (0000ms, 0730ms total)
T0B1C 003:539 JLINK_Go() -- CPU_WriteMem(4 bytes @ 0xE0002000) -- CPU_ReadMem(4 bytes @ 0xE0001000) -- CPU_WriteMem(4 bytes @ 0xE0002008) -- CPU_WriteMem(4 bytes @ 0xE000200C) -- CPU_WriteMem(4 bytes @ 0xE0002010) -- CPU_WriteMem(4 bytes @ 0xE0002014) -- CPU_WriteMem(4 bytes @ 0xE0002018) -- CPU_WriteMem(4 bytes @ 0xE000201C) -- CPU_WriteMem(4 bytes @ 0xE0001004) (0011ms, 0741ms total)
T0B1C 003:657 JLINK_IsHalted()  returns TRUE (0005ms, 0746ms total)
T0B1C 003:663 JLINK_Halt()  returns 0x00 (0000ms, 0741ms total)
T0B1C 003:663 JLINK_IsHalted()  returns TRUE (0000ms, 0741ms total)
T0B1C 003:663 JLINK_IsHalted()  returns TRUE (0000ms, 0741ms total)
T0B1C 003:663 JLINK_IsHalted()  returns TRUE (0000ms, 0741ms total)
T0B1C 003:663 JLINK_ReadReg(R15 (PC))  returns 0x00000498 (0000ms, 0741ms total)
T0B1C 003:663 JLINK_ReadReg(XPSR)  returns 0x61000000 (0000ms, 0741ms total)
T0B1C 003:663 JLINK_ClrBPEx(BPHandle = 0x00000001)  returns 0x00 (0000ms, 0741ms total)
T0B1C 003:663 JLINK_ClrBPEx(BPHandle = 0x00000002)  returns 0x00 (0000ms, 0741ms total)
T0B1C 003:663 JLINK_ReadMemU32(0xE000ED30, 0x0001 Items, ...) -- CPU_ReadMem(4 bytes @ 0xE000ED30) - Data: 03 00 00 00  returns 0x01 (0001ms, 0742ms total)
T0B1C 003:664 JLINK_ReadMemU32(0xE0001028, 0x0001 Items, ...) -- CPU_ReadMem(4 bytes @ 0xE0001028) - Data: 00 00 00 00  returns 0x01 (0001ms, 0743ms total)
T0B1C 003:665 JLINK_ReadMemU32(0xE0001038, 0x0001 Items, ...) -- CPU_ReadMem(4 bytes @ 0xE0001038) - Data: 00 02 00 00  returns 0x01 (0001ms, 0744ms total)
T0B1C 003:666 JLINK_ReadMemU32(0xE0001048, 0x0001 Items, ...) -- CPU_ReadMem(4 bytes @ 0xE0001048) - Data: 00 00 00 00  returns 0x01 (0001ms, 0745ms total)
T0B1C 003:667 JLINK_ReadMemU32(0xE0001058, 0x0001 Items, ...) -- CPU_ReadMem(4 bytes @ 0xE0001058) - Data: 00 00 00 01  returns 0x01 (0007ms, 0752ms total)
T0B1C 003:674 JLINK_ReadReg(R0)  returns 0x00000499 (0000ms, 0752ms total)
T0B1C 003:674 JLINK_ReadReg(R1)  returns 0x00000181 (0001ms, 0753ms total)
T0B1C 003:675 JLINK_ReadReg(R2)  returns 0x00000000 (0000ms, 0753ms total)
T0B1C 003:675 JLINK_ReadReg(R3)  returns 0x00000000 (0000ms, 0753ms total)
T0B1C 003:675 JLINK_ReadReg(R4)  returns 0x3456ABCD (0000ms, 0753ms total)
T0B1C 003:675 JLINK_ReadReg(R5)  returns 0x3456ABCD (0000ms, 0753ms total)
T0B1C 003:675 JLINK_ReadReg(R6)  returns 0x12345678 (0000ms, 0753ms total)
T0B1C 003:675 JLINK_ReadReg(R7)  returns 0x000039E2 (0000ms, 0753ms total)
T0B1C 003:675 JLINK_ReadReg(R8)  returns 0x00000000 (0000ms, 0753ms total)
T0B1C 003:675 JLINK_ReadReg(R9)  returns 0x100001DC (0000ms, 0753ms total)
T0B1C 003:675 JLINK_ReadReg(R10)  returns 0x00003A30 (0000ms, 0753ms total)
T0B1C 003:675 JLINK_ReadReg(R11)  returns 0x00000000 (0000ms, 0753ms total)
T0B1C 003:675 JLINK_ReadReg(R12)  returns 0x00000000 (0000ms, 0753ms total)
T0B1C 003:675 JLINK_ReadReg(R13 (SP))  returns 0x10007118 (0000ms, 0753ms total)
T0B1C 003:675 JLINK_ReadReg(R14)  returns 0x00000185 (0000ms, 0753ms total)
T0B1C 003:675 JLINK_ReadReg(R15 (PC))  returns 0x00000498 (0000ms, 0753ms total)
T0B1C 003:675 JLINK_ReadReg(XPSR)  returns 0x61000000 (0000ms, 0753ms total)
T0B1C 003:675 JLINK_ReadReg(MSP)  returns 0x10007118 (0000ms, 0753ms total)
T0B1C 003:675 JLINK_ReadReg(PSP)  returns 0x10000800 (0000ms, 0753ms total)
T0B1C 003:675 JLINK_ReadReg(CFBP)  returns 0x00000000 (0000ms, 0753ms total)
T02F8 003:690 JLINK_ReadMem (0x00000494, 0x003C Bytes, ...) -- CPU_ReadMem(128 bytes @ 0x00000480) -- Updating C cache (128 bytes @ 0x00000480) -- Read from C cache (60 bytes @ 0x00000494) - Data: BD E8 F0 87 30 20 39 49 08 60 34 48 88 38 D0 F8 ...  returns 0x00 (0003ms, 0756ms total)
T02F8 013:681 JLINK_ReadMem (0x400FC080, 0x0004 Bytes, ...) -- CPU_ReadMem(4 bytes @ 0x400FC080) - Data: 00 00 00 00  returns 0x00 (0000ms, 0756ms total)
T02F8 013:683 JLINK_ReadMem (0x400FC084, 0x0004 Bytes, ...) -- CPU_ReadMem(4 bytes @ 0x400FC084) - Data: 00 00 00 00  returns 0x00 (0000ms, 0756ms total)
T02F8 013:683 JLINK_ReadMem (0x400FC088, 0x0004 Bytes, ...) -- CPU_ReadMem(4 bytes @ 0x400FC088) - Data: 00 00 00 00  returns 0x00 (0000ms, 0756ms total)
T02F8 013:683 JLINK_ReadMem (0x400FC08C, 0x0004 Bytes, ...) -- CPU_ReadMem(4 bytes @ 0x400FC08C) - Data: 00 00 00 00  returns 0x00 (0001ms, 0757ms total)
T02F8 013:684 JLINK_ReadMem (0x400FC10C, 0x0004 Bytes, ...) -- CPU_ReadMem(4 bytes @ 0x400FC10C) - Data: 00 00 00 00  returns 0x00 (0001ms, 0758ms total)
T02F8 013:685 JLINK_ReadMem (0x400FC088, 0x0004 Bytes, ...) -- CPU_ReadMem(4 bytes @ 0x400FC088) - Data: 00 00 00 00  returns 0x00 (0001ms, 0759ms total)
T02F8 013:686 JLINK_ReadMem (0x400FC104, 0x0004 Bytes, ...) -- CPU_ReadMem(4 bytes @ 0x400FC104) - Data: 00 00 00 00  returns 0x00 (0001ms, 0760ms total)
T02F8 013:687 JLINK_ReadMem (0x400FC108, 0x0004 Bytes, ...) -- CPU_ReadMem(4 bytes @ 0x400FC108) - Data: 00 00 00 00  returns 0x00 (0001ms, 0761ms total)
T02F8 013:688 JLINK_ReadMem (0x400FC088, 0x0004 Bytes, ...) -- CPU_ReadMem(4 bytes @ 0x400FC088) - Data: 00 00 00 00  returns 0x00 (0001ms, 0762ms total)
T02F8 013:689 JLINK_ReadMem (0x400FC0A8, 0x0004 Bytes, ...) -- CPU_ReadMem(4 bytes @ 0x400FC0A8) - Data: 00 00 00 00  returns 0x00 (0001ms, 0763ms total)
T02F8 013:690 JLINK_ReadMem (0x400FC088, 0x0004 Bytes, ...) -- CPU_ReadMem(4 bytes @ 0x400FC088) - Data: 00 00 00 00  returns 0x00 (0001ms, 0764ms total)
T02F8 013:691 JLINK_ReadMem (0x400FC10C, 0x0004 Bytes, ...) -- CPU_ReadMem(4 bytes @ 0x400FC10C) - Data: 00 00 00 00  returns 0x00 (0001ms, 0765ms total)
T02F8 019:190 JLINK_ReadMem (0x400FC080, 0x0004 Bytes, ...) -- CPU_ReadMem(4 bytes @ 0x400FC080) - Data: 00 00 00 00  returns 0x00 (0001ms, 0766ms total)
T0B1C 020:415 JLINK_Step() -- Read from C cache (2 bytes @ 0x00000498) -- CPU_ReadMem(4 bytes @ 0xE0001004) -- Simulated  returns 0x00 (0002ms, 0768ms total)
T0B1C 020:417 JLINK_ReadReg(R15 (PC))  returns 0x0000049A (0000ms, 0768ms total)
T0B1C 020:417 JLINK_ReadReg(XPSR)  returns 0x21000000 (0001ms, 0769ms total)
T0B1C 020:418 JLINK_Step() -- Read from C cache (2 bytes @ 0x0000049A) -- CPU_ReadMem(64 bytes @ 0x00000580) -- Updating C cache (64 bytes @ 0x00000580) -- Read from C cache (4 bytes @ 0x00000580) -- Simulated  returns 0x00 (0001ms, 0770ms total)
T0B1C 020:419 JLINK_ReadReg(R15 (PC))  returns 0x0000049C (0000ms, 0770ms total)
T0B1C 020:419 JLINK_ReadReg(XPSR)  returns 0x21000000 (0001ms, 0771ms total)
T0B1C 020:420 JLINK_Step() -- Read from C cache (2 bytes @ 0x0000049C) -- Not simulated -- CPU_WriteMem(4 bytes @ 0xE0002008) -- CPU_WriteMem(4 bytes @ 0xE000200C) -- CPU_WriteMem(4 bytes @ 0xE0001004)  returns 0x00 (0007ms, 0778ms total)
T0B1C 020:427 JLINK_ReadReg(R15 (PC))  returns 0x0000049E (0002ms, 0780ms total)
T0B1C 020:429 JLINK_ReadReg(XPSR)  returns 0x21000000 (0000ms, 0780ms total)
T0B1C 020:432 JLINK_ReadReg(R0)  returns 0x00000030 (0001ms, 0781ms total)
T0B1C 020:433 JLINK_ReadReg(R1)  returns 0x400FC1A0 (0000ms, 0781ms total)
T0B1C 020:433 JLINK_ReadReg(R2)  returns 0x00000000 (0000ms, 0781ms total)
T0B1C 020:433 JLINK_ReadReg(R3)  returns 0x00000000 (0000ms, 0781ms total)
T0B1C 020:433 JLINK_ReadReg(R4)  returns 0x3456ABCD (0000ms, 0781ms total)
T0B1C 020:433 JLINK_ReadReg(R5)  returns 0x3456ABCD (0000ms, 0781ms total)
T0B1C 020:433 JLINK_ReadReg(R6)  returns 0x12345678 (0000ms, 0781ms total)
T0B1C 020:433 JLINK_ReadReg(R7)  returns 0x000039E2 (0000ms, 0781ms total)
T0B1C 020:433 JLINK_ReadReg(R8)  returns 0x00000000 (0000ms, 0781ms total)
T0B1C 020:433 JLINK_ReadReg(R9)  returns 0x100001DC (0000ms, 0781ms total)
T0B1C 020:433 JLINK_ReadReg(R10)  returns 0x00003A30 (0000ms, 0781ms total)
T0B1C 020:433 JLINK_ReadReg(R11)  returns 0x00000000 (0001ms, 0782ms total)
T0B1C 020:434 JLINK_ReadReg(R12)  returns 0x00000000 (0000ms, 0782ms total)
T0B1C 020:434 JLINK_ReadReg(R13 (SP))  returns 0x10007118 (0000ms, 0782ms total)
T0B1C 020:434 JLINK_ReadReg(R14)  returns 0x00000185 (0000ms, 0782ms total)
T0B1C 020:434 JLINK_ReadReg(R15 (PC))  returns 0x0000049E (0000ms, 0782ms total)
T0B1C 020:434 JLINK_ReadReg(XPSR)  returns 0x21000000 (0000ms, 0782ms total)
T0B1C 020:434 JLINK_ReadReg(MSP)  returns 0x10007118 (0000ms, 0782ms total)
T0B1C 020:434 JLINK_ReadReg(PSP)  returns 0x10000800 (0000ms, 0782ms total)
T0B1C 020:434 JLINK_ReadReg(CFBP)  returns 0x00000000 (0000ms, 0782ms total)
T02F8 020:437 JLINK_ReadMem (0x400FC080, 0x0004 Bytes, ...) -- CPU_ReadMem(4 bytes @ 0x400FC080) - Data: 00 00 00 00  returns 0x00 (0001ms, 0783ms total)
T02F8 020:438 JLINK_ReadMem (0x400FC084, 0x0004 Bytes, ...) -- CPU_ReadMem(4 bytes @ 0x400FC084) - Data: 00 00 00 00  returns 0x00 (0001ms, 0784ms total)
T02F8 020:439 JLINK_ReadMem (0x400FC088, 0x0004 Bytes, ...) -- CPU_ReadMem(4 bytes @ 0x400FC088) - Data: 00 00 00 00  returns 0x00 (0001ms, 0785ms total)
T02F8 020:440 JLINK_ReadMem (0x400FC08C, 0x0004 Bytes, ...) -- CPU_ReadMem(4 bytes @ 0x400FC08C) - Data: 00 00 00 00  returns 0x00 (0001ms, 0786ms total)
T02F8 020:441 JLINK_ReadMem (0x400FC10C, 0x0004 Bytes, ...) -- CPU_ReadMem(4 bytes @ 0x400FC10C) - Data: 00 00 00 00  returns 0x00 (0001ms, 0787ms total)
T02F8 020:442 JLINK_ReadMem (0x400FC088, 0x0004 Bytes, ...) -- CPU_ReadMem(4 bytes @ 0x400FC088) - Data: 00 00 00 00  returns 0x00 (0001ms, 0788ms total)
T02F8 020:443 JLINK_ReadMem (0x400FC10C, 0x0004 Bytes, ...) -- CPU_ReadMem(4 bytes @ 0x400FC10C) - Data: 00 00 00 00  returns 0x00 (0001ms, 0789ms total)
T0B1C 021:148 JLINK_ReadMem (0x0000049E, 0x0002 Bytes, ...) -- CPU_ReadMem(64 bytes @ 0x00000480) -- Updating C cache (64 bytes @ 0x00000480) -- Read from C cache (2 bytes @ 0x0000049E) - Data: 34 48  returns 0x00 (0003ms, 0792ms total)
T0B1C 021:151 JLINK_ReadMem (0x000004A0, 0x003C Bytes, ...) -- CPU_ReadMem(64 bytes @ 0x000004C0) -- Updating C cache (64 bytes @ 0x000004C0) -- Read from C cache (60 bytes @ 0x000004A0) - Data: 88 38 D0 F8 A0 01 00 F0 20 00 30 B1 00 BF 34 48 ...  returns 0x00 (0001ms, 0793ms total)
T0B1C 021:153 JLINK_Step() -- Read from C cache (2 bytes @ 0x0000049E) -- CPU_ReadMem(4 bytes @ 0xE0001004) -- CPU_ReadMem(64 bytes @ 0x00000540) -- Updating C cache (64 bytes @ 0x00000540) -- Read from C cache (4 bytes @ 0x00000570) -- Simulated  returns 0x00 (0004ms, 0797ms total)
T0B1C 021:157 JLINK_ReadReg(R15 (PC))  returns 0x000004A0 (0000ms, 0797ms total)
T0B1C 021:157 JLINK_ReadReg(XPSR)  returns 0x21000000 (0000ms, 0797ms total)
T0B1C 021:157 JLINK_Step() -- Read from C cache (2 bytes @ 0x000004A0) -- Simulated  returns 0x00 (0000ms, 0797ms total)
T0B1C 021:157 JLINK_ReadReg(R15 (PC))  returns 0x000004A2 (0000ms, 0797ms total)
T0B1C 021:157 JLINK_ReadReg(XPSR)  returns 0x21000000 (0000ms, 0797ms total)
T0B1C 021:157 JLINK_Step() -- Read from C cache (2 bytes @ 0x000004A2) -- Read from C cache (2 bytes @ 0x000004A4) -- Not simulated -- CPU_WriteMem(4 bytes @ 0xE0001004)  returns 0x00 (0009ms, 0806ms total)
T0B1C 021:166 JLINK_ReadReg(R15 (PC))  returns 0x000004A6 (0000ms, 0806ms total)
T0B1C 021:166 JLINK_ReadReg(XPSR)  returns 0x21000000 (0000ms, 0806ms total)
T0B1C 021:166 JLINK_Step() -- CPU_ReadMem(64 bytes @ 0x00000480) -- Updating C cache (64 bytes @ 0x00000480) -- Read from C cache (2 bytes @ 0x000004A6) -- CPU_ReadMem(4 bytes @ 0xE0001004) -- Read from C cache (2 bytes @ 0x000004A8) -- Simulated  returns 0x00 (0002ms, 0808ms total)
T0B1C 021:168 JLINK_ReadReg(R15 (PC))  returns 0x000004AA (0001ms, 0809ms total)
T0B1C 021:169 JLINK_ReadReg(XPSR)  returns 0x21000000 (0000ms, 0809ms total)
T0B1C 021:169 JLINK_Step() -- Read from C cache (2 bytes @ 0x000004AA) -- Simulated  returns 0x00 (0000ms, 0809ms total)
T0B1C 021:169 JLINK_ReadReg(R15 (PC))  returns 0x000004AC (0000ms, 0809ms total)
T0B1C 021:169 JLINK_ReadReg(XPSR)  returns 0x21000000 (0000ms, 0809ms total)
T0B1C 021:170 JLINK_ReadReg(R0)  returns 0x00000020 (0000ms, 0809ms total)
T0B1C 021:170 JLINK_ReadReg(R1)  returns 0x400FC1A0 (0000ms, 0809ms total)
T0B1C 021:170 JLINK_ReadReg(R2)  returns 0x00000000 (0000ms, 0809ms total)
T0B1C 021:170 JLINK_ReadReg(R3)  returns 0x00000000 (0000ms, 0809ms total)
T0B1C 021:170 JLINK_ReadReg(R4)  returns 0x3456ABCD (0000ms, 0809ms total)
T0B1C 021:170 JLINK_ReadReg(R5)  returns 0x3456ABCD (0000ms, 0809ms total)
T0B1C 021:170 JLINK_ReadReg(R6)  returns 0x12345678 (0000ms, 0809ms total)
T0B1C 021:170 JLINK_ReadReg(R7)  returns 0x000039E2 (0000ms, 0809ms total)
T0B1C 021:170 JLINK_ReadReg(R8)  returns 0x00000000 (0000ms, 0809ms total)
T0B1C 021:170 JLINK_ReadReg(R9)  returns 0x100001DC (0000ms, 0809ms total)
T0B1C 021:170 JLINK_ReadReg(R10)  returns 0x00003A30 (0000ms, 0809ms total)
T0B1C 021:170 JLINK_ReadReg(R11)  returns 0x00000000 (0000ms, 0809ms total)
T0B1C 021:170 JLINK_ReadReg(R12)  returns 0x00000000 (0000ms, 0809ms total)
T0B1C 021:170 JLINK_ReadReg(R13 (SP))  returns 0x10007118 (0000ms, 0809ms total)
T0B1C 021:170 JLINK_ReadReg(R14)  returns 0x00000185 (0000ms, 0809ms total)
T0B1C 021:170 JLINK_ReadReg(R15 (PC))  returns 0x000004AC (0000ms, 0809ms total)
T0B1C 021:170 JLINK_ReadReg(XPSR)  returns 0x21000000 (0000ms, 0809ms total)
T0B1C 021:170 JLINK_ReadReg(MSP)  returns 0x10007118 (0000ms, 0809ms total)
T0B1C 021:170 JLINK_ReadReg(PSP)  returns 0x10000800 (0000ms, 0809ms total)
T0B1C 021:170 JLINK_ReadReg(CFBP)  returns 0x00000000 (0000ms, 0809ms total)
T02F8 021:170 JLINK_ReadMem (0x400FC080, 0x0004 Bytes, ...) -- CPU_ReadMem(4 bytes @ 0x400FC080) - Data: 00 00 00 00  returns 0x00 (0002ms, 0811ms total)
T02F8 021:172 JLINK_ReadMem (0x400FC084, 0x0004 Bytes, ...) -- CPU_ReadMem(4 bytes @ 0x400FC084) - Data: 00 00 00 00  returns 0x00 (0000ms, 0811ms total)
T02F8 021:172 JLINK_ReadMem (0x400FC088, 0x0004 Bytes, ...) -- CPU_ReadMem(4 bytes @ 0x400FC088) - Data: 00 00 00 00  returns 0x00 (0001ms, 0812ms total)
T02F8 021:173 JLINK_ReadMem (0x400FC08C, 0x0004 Bytes, ...) -- CPU_ReadMem(4 bytes @ 0x400FC08C) - Data: 00 00 00 00  returns 0x00 (0001ms, 0813ms total)
T02F8 021:174 JLINK_ReadMem (0x400FC10C, 0x0004 Bytes, ...) -- CPU_ReadMem(4 bytes @ 0x400FC10C) - Data: 00 00 00 00  returns 0x00 (0001ms, 0814ms total)
T02F8 021:175 JLINK_ReadMem (0x400FC088, 0x0004 Bytes, ...) -- CPU_ReadMem(4 bytes @ 0x400FC088) - Data: 00 00 00 00  returns 0x00 (0001ms, 0815ms total)
T02F8 021:176 JLINK_ReadMem (0x400FC10C, 0x0004 Bytes, ...) -- CPU_ReadMem(4 bytes @ 0x400FC10C) - Data: 00 00 00 00  returns 0x00 (0001ms, 0816ms total)
T02F8 021:185 JLINK_ReadMem (0x0000049E, 0x0002 Bytes, ...) -- Read from C cache (2 bytes @ 0x0000049E) - Data: 34 48  returns 0x00 (0000ms, 0816ms total)
T02F8 021:185 JLINK_ReadMem (0x000004A0, 0x003C Bytes, ...) -- CPU_ReadMem(64 bytes @ 0x000004C0) -- Updating C cache (64 bytes @ 0x000004C0) -- Read from C cache (60 bytes @ 0x000004A0) - Data: 88 38 D0 F8 A0 01 00 F0 20 00 30 B1 00 BF 34 48 ...  returns 0x00 (0001ms, 0817ms total)
T0B1C 021:828 JLINK_Step() -- Read from C cache (2 bytes @ 0x000004AC) -- Simulated  returns 0x00 (0012ms, 0829ms total)
T0B1C 021:840 JLINK_ReadReg(R15 (PC))  returns 0x000004AE (0000ms, 0829ms total)
T0B1C 021:840 JLINK_ReadReg(XPSR)  returns 0x21000000 (0000ms, 0829ms total)
T0B1C 021:842 JLINK_ReadReg(R0)  returns 0x00000020 (0000ms, 0831ms total)
T0B1C 021:842 JLINK_ReadReg(R1)  returns 0x400FC1A0 (0000ms, 0831ms total)
T0B1C 021:842 JLINK_ReadReg(R2)  returns 0x00000000 (0000ms, 0831ms total)
T0B1C 021:842 JLINK_ReadReg(R3)  returns 0x00000000 (0000ms, 0831ms total)
T0B1C 021:842 JLINK_ReadReg(R4)  returns 0x3456ABCD (0000ms, 0831ms total)
T0B1C 021:842 JLINK_ReadReg(R5)  returns 0x3456ABCD (0000ms, 0831ms total)
T0B1C 021:842 JLINK_ReadReg(R6)  returns 0x12345678 (0000ms, 0831ms total)
T0B1C 021:842 JLINK_ReadReg(R7)  returns 0x000039E2 (0000ms, 0831ms total)
T0B1C 021:842 JLINK_ReadReg(R8)  returns 0x00000000 (0000ms, 0831ms total)
T0B1C 021:842 JLINK_ReadReg(R9)  returns 0x100001DC (0000ms, 0831ms total)
T0B1C 021:842 JLINK_ReadReg(R10)  returns 0x00003A30 (0000ms, 0831ms total)
T0B1C 021:842 JLINK_ReadReg(R11)  returns 0x00000000 (0000ms, 0831ms total)
T0B1C 021:842 JLINK_ReadReg(R12)  returns 0x00000000 (0000ms, 0831ms total)
T0B1C 021:842 JLINK_ReadReg(R13 (SP))  returns 0x10007118 (0000ms, 0831ms total)
T0B1C 021:842 JLINK_ReadReg(R14)  returns 0x00000185 (0000ms, 0831ms total)
T0B1C 021:842 JLINK_ReadReg(R15 (PC))  returns 0x000004AE (0000ms, 0831ms total)
T0B1C 021:842 JLINK_ReadReg(XPSR)  returns 0x21000000 (0000ms, 0831ms total)
T0B1C 021:843 JLINK_ReadReg(MSP)  returns 0x10007118 (0000ms, 0831ms total)
T0B1C 021:843 JLINK_ReadReg(PSP)  returns 0x10000800 (0000ms, 0831ms total)
T0B1C 021:843 JLINK_ReadReg(CFBP)  returns 0x00000000 (0000ms, 0831ms total)
T02F8 021:843 JLINK_ReadMem (0x400FC080, 0x0004 Bytes, ...) -- CPU_ReadMem(4 bytes @ 0x400FC080) - Data: 00 00 00 00  returns 0x00 (0001ms, 0832ms total)
T02F8 021:844 JLINK_ReadMem (0x400FC084, 0x0004 Bytes, ...) -- CPU_ReadMem(4 bytes @ 0x400FC084) - Data: 00 00 00 00  returns 0x00 (0003ms, 0835ms total)
T02F8 021:847 JLINK_ReadMem (0x400FC088, 0x0004 Bytes, ...) -- CPU_ReadMem(4 bytes @ 0x400FC088) - Data: 00 00 00 00  returns 0x00 (0001ms, 0836ms total)
T02F8 021:848 JLINK_ReadMem (0x400FC08C, 0x0004 Bytes, ...) -- CPU_ReadMem(4 bytes @ 0x400FC08C) - Data: 00 00 00 00  returns 0x00 (0000ms, 0836ms total)
T02F8 021:848 JLINK_ReadMem (0x400FC10C, 0x0004 Bytes, ...) -- CPU_ReadMem(4 bytes @ 0x400FC10C) - Data: 00 00 00 00  returns 0x00 (0001ms, 0837ms total)
T02F8 021:849 JLINK_ReadMem (0x400FC088, 0x0004 Bytes, ...) -- CPU_ReadMem(4 bytes @ 0x400FC088) - Data: 00 00 00 00  returns 0x00 (0001ms, 0838ms total)
T02F8 021:850 JLINK_ReadMem (0x400FC10C, 0x0004 Bytes, ...) -- CPU_ReadMem(4 bytes @ 0x400FC10C) - Data: 00 00 00 00  returns 0x00 (0001ms, 0839ms total)
T0B1C 022:341 JLINK_ReadMem (0x000004AE, 0x0002 Bytes, ...) -- Read from C cache (2 bytes @ 0x000004AE) - Data: 34 48  returns 0x00 (0000ms, 0839ms total)
T0B1C 022:341 JLINK_ReadMem (0x000004B0, 0x003C Bytes, ...) -- Read from C cache (60 bytes @ 0x000004B0) - Data: 00 68 00 F0 40 00 00 28 F9 D0 02 20 2C 49 7C 31 ...  returns 0x00 (0000ms, 0839ms total)
T0B1C 022:341 JLINK_Step() -- Read from C cache (2 bytes @ 0x000004AE) -- CPU_ReadMem(64 bytes @ 0x00000580) -- Updating C cache (64 bytes @ 0x00000580) -- Read from C cache (4 bytes @ 0x00000580) -- Simulated  returns 0x00 (0007ms, 0846ms total)
T0B1C 022:348 JLINK_ReadReg(R15 (PC))  returns 0x000004B0 (0000ms, 0846ms total)
T0B1C 022:348 JLINK_ReadReg(XPSR)  returns 0x21000000 (0000ms, 0846ms total)
T0B1C 022:348 JLINK_Step() -- Read from C cache (2 bytes @ 0x000004B0) -- Not simulated -- CPU_WriteMem(4 bytes @ 0xE0001004)  returns 0x00 (0008ms, 0854ms total)
T0B1C 022:356 JLINK_ReadReg(R15 (PC))  returns 0x000004B2 (0000ms, 0854ms total)
T0B1C 022:356 JLINK_ReadReg(XPSR)  returns 0x21000000 (0000ms, 0854ms total)
T0B1C 022:356 JLINK_Step() -- CPU_ReadMem(64 bytes @ 0x00000480) -- Updating C cache (64 bytes @ 0x00000480) -- Read from C cache (2 bytes @ 0x000004B2) -- CPU_ReadMem(4 bytes @ 0xE0001004) -- Read from C cache (2 bytes @ 0x000004B4) -- Simulated  returns 0x00 (0002ms, 0856ms total)
T0B1C 022:358 JLINK_ReadReg(R15 (PC))  returns 0x000004B6 (0000ms, 0856ms total)
T0B1C 022:359 JLINK_ReadReg(XPSR)  returns 0x21000000 (0000ms, 0856ms total)
T0B1C 022:359 JLINK_Step() -- Read from C cache (2 bytes @ 0x000004B6) -- Simulated  returns 0x00 (0000ms, 0856ms total)
T0B1C 022:359 JLINK_ReadReg(R15 (PC))  returns 0x000004B8 (0000ms, 0856ms total)
T0B1C 022:359 JLINK_ReadReg(XPSR)  returns 0x21000000 (0000ms, 0856ms total)
T0B1C 022:359 JLINK_Step() -- Read from C cache (2 bytes @ 0x000004B8) -- Simulated  returns 0x00 (0000ms, 0856ms total)
T0B1C 022:359 JLINK_ReadReg(R15 (PC))  returns 0x000004BA (0000ms, 0856ms total)
T0B1C 022:359 JLINK_ReadReg(XPSR)  returns 0x21000000 (0000ms, 0856ms total)
T0B1C 022:360 JLINK_ReadReg(R0)  returns 0x00000040 (0000ms, 0856ms total)
T0B1C 022:360 JLINK_ReadReg(R1)  returns 0x400FC1A0 (0000ms, 0856ms total)
T0B1C 022:360 JLINK_ReadReg(R2)  returns 0x00000000 (0000ms, 0856ms total)
T0B1C 022:360 JLINK_ReadReg(R3)  returns 0x00000000 (0000ms, 0856ms total)
T0B1C 022:360 JLINK_ReadReg(R4)  returns 0x3456ABCD (0000ms, 0856ms total)
T0B1C 022:360 JLINK_ReadReg(R5)  returns 0x3456ABCD (0000ms, 0856ms total)
T0B1C 022:360 JLINK_ReadReg(R6)  returns 0x12345678 (0000ms, 0856ms total)
T0B1C 022:360 JLINK_ReadReg(R7)  returns 0x000039E2 (0000ms, 0856ms total)
T0B1C 022:360 JLINK_ReadReg(R8)  returns 0x00000000 (0000ms, 0856ms total)
T0B1C 022:360 JLINK_ReadReg(R9)  returns 0x100001DC (0000ms, 0856ms total)
T0B1C 022:360 JLINK_ReadReg(R10)  returns 0x00003A30 (0000ms, 0856ms total)
T0B1C 022:360 JLINK_ReadReg(R11)  returns 0x00000000 (0000ms, 0856ms total)
T0B1C 022:360 JLINK_ReadReg(R12)  returns 0x00000000 (0000ms, 0856ms total)
T0B1C 022:360 JLINK_ReadReg(R13 (SP))  returns 0x10007118 (0000ms, 0856ms total)
T0B1C 022:360 JLINK_ReadReg(R14)  returns 0x00000185 (0000ms, 0856ms total)
T0B1C 022:360 JLINK_ReadReg(R15 (PC))  returns 0x000004BA (0000ms, 0856ms total)
T0B1C 022:360 JLINK_ReadReg(XPSR)  returns 0x21000000 (0000ms, 0856ms total)
T0B1C 022:360 JLINK_ReadReg(MSP)  returns 0x10007118 (0000ms, 0856ms total)
T0B1C 022:360 JLINK_ReadReg(PSP)  returns 0x10000800 (0000ms, 0856ms total)
T0B1C 022:360 JLINK_ReadReg(CFBP)  returns 0x00000000 (0000ms, 0856ms total)
T02F8 022:363 JLINK_ReadMem (0x400FC080, 0x0004 Bytes, ...) -- CPU_ReadMem(4 bytes @ 0x400FC080) - Data: 00 00 00 00  returns 0x00 (0001ms, 0857ms total)
T02F8 022:364 JLINK_ReadMem (0x400FC084, 0x0004 Bytes, ...) -- CPU_ReadMem(4 bytes @ 0x400FC084) - Data: 00 00 00 00  returns 0x00 (0000ms, 0857ms total)
T02F8 022:365 JLINK_ReadMem (0x400FC088, 0x0004 Bytes, ...) -- CPU_ReadMem(4 bytes @ 0x400FC088) - Data: 00 00 00 00  returns 0x00 (0000ms, 0858ms total)
T02F8 022:365 JLINK_ReadMem (0x400FC08C, 0x0004 Bytes, ...) -- CPU_ReadMem(4 bytes @ 0x400FC08C) - Data: 00 00 00 00  returns 0x00 (0001ms, 0859ms total)
T02F8 022:366 JLINK_ReadMem (0x400FC10C, 0x0004 Bytes, ...) -- CPU_ReadMem(4 bytes @ 0x400FC10C) - Data: 00 00 00 00  returns 0x00 (0000ms, 0859ms total)
T02F8 022:366 JLINK_ReadMem (0x400FC088, 0x0004 Bytes, ...) -- CPU_ReadMem(4 bytes @ 0x400FC088) - Data: 00 00 00 00  returns 0x00 (0001ms, 0860ms total)
T02F8 022:367 JLINK_ReadMem (0x400FC10C, 0x0004 Bytes, ...) -- CPU_ReadMem(4 bytes @ 0x400FC10C) - Data: 00 00 00 00  returns 0x00 (0001ms, 0861ms total)
T02F8 022:378 JLINK_ReadMem (0x000004AC, 0x003C Bytes, ...) -- CPU_ReadMem(64 bytes @ 0x000004C0) -- Updating C cache (64 bytes @ 0x000004C0) -- Read from C cache (60 bytes @ 0x000004AC) - Data: 00 BF 34 48 00 68 00 F0 40 00 00 28 F9 D0 02 20 ...  returns 0x00 (0002ms, 0863ms total)
T0B1C 023:688 JLINK_Step() -- Read from C cache (2 bytes @ 0x000004BA) -- Simulated  returns 0x00 (0015ms, 0878ms total)
T0B1C 023:703 JLINK_ReadReg(R15 (PC))  returns 0x000004BC (0000ms, 0878ms total)
T0B1C 023:703 JLINK_ReadReg(XPSR)  returns 0x21000000 (0000ms, 0878ms total)
T0B1C 023:703 JLINK_Step() -- Read from C cache (2 bytes @ 0x000004BC) -- CPU_ReadMem(64 bytes @ 0x00000540) -- Updating C cache (64 bytes @ 0x00000540) -- Read from C cache (4 bytes @ 0x00000570) -- Simulated  returns 0x00 (0002ms, 0880ms total)
T0B1C 023:705 JLINK_ReadReg(R15 (PC))  returns 0x000004BE (0000ms, 0880ms total)
T0B1C 023:705 JLINK_ReadReg(XPSR)  returns 0x21000000 (0000ms, 0880ms total)
T0B1C 023:706 JLINK_Step() -- Read from C cache (2 bytes @ 0x000004BE) -- Simulated  returns 0x00 (0000ms, 0880ms total)
T0B1C 023:706 JLINK_ReadReg(R15 (PC))  returns 0x000004C0 (0000ms, 0880ms total)
T0B1C 023:706 JLINK_ReadReg(XPSR)  returns 0x01000000 (0000ms, 0880ms total)
T0B1C 023:706 JLINK_Step() -- Read from C cache (2 bytes @ 0x000004C0) -- Not simulated -- CPU_WriteMem(4 bytes @ 0xE0001004)  returns 0x00 (0007ms, 0887ms total)
T0B1C 023:713 JLINK_ReadReg(R15 (PC))  returns 0x000004C2 (0000ms, 0887ms total)
T0B1C 023:713 JLINK_ReadReg(XPSR)  returns 0x01000000 (0000ms, 0887ms total)
T0B1C 023:714 JLINK_ReadReg(R0)  returns 0x00000002 (0000ms, 0887ms total)
T0B1C 023:714 JLINK_ReadReg(R1)  returns 0x400FC104 (0000ms, 0887ms total)
T0B1C 023:714 JLINK_ReadReg(R2)  returns 0x00000000 (0000ms, 0887ms total)
T0B1C 023:714 JLINK_ReadReg(R3)  returns 0x00000000 (0000ms, 0887ms total)
T0B1C 023:714 JLINK_ReadReg(R4)  returns 0x3456ABCD (0000ms, 0887ms total)
T0B1C 023:714 JLINK_ReadReg(R5)  returns 0x3456ABCD (0000ms, 0887ms total)
T0B1C 023:714 JLINK_ReadReg(R6)  returns 0x12345678 (0000ms, 0887ms total)
T0B1C 023:714 JLINK_ReadReg(R7)  returns 0x000039E2 (0000ms, 0887ms total)
T0B1C 023:714 JLINK_ReadReg(R8)  returns 0x00000000 (0000ms, 0887ms total)
T0B1C 023:714 JLINK_ReadReg(R9)  returns 0x100001DC (0000ms, 0887ms total)
T0B1C 023:714 JLINK_ReadReg(R10)  returns 0x00003A30 (0000ms, 0887ms total)
T0B1C 023:714 JLINK_ReadReg(R11)  returns 0x00000000 (0000ms, 0887ms total)
T0B1C 023:714 JLINK_ReadReg(R12)  returns 0x00000000 (0000ms, 0887ms total)
T0B1C 023:714 JLINK_ReadReg(R13 (SP))  returns 0x10007118 (0000ms, 0887ms total)
T0B1C 023:714 JLINK_ReadReg(R14)  returns 0x00000185 (0000ms, 0887ms total)
T0B1C 023:714 JLINK_ReadReg(R15 (PC))  returns 0x000004C2 (0000ms, 0887ms total)
T0B1C 023:714 JLINK_ReadReg(XPSR)  returns 0x01000000 (0000ms, 0887ms total)
T0B1C 023:714 JLINK_ReadReg(MSP)  returns 0x10007118 (0000ms, 0887ms total)
T0B1C 023:714 JLINK_ReadReg(PSP)  returns 0x10000800 (0000ms, 0887ms total)
T0B1C 023:714 JLINK_ReadReg(CFBP)  returns 0x00000000 (0000ms, 0887ms total)
T02F8 023:717 JLINK_ReadMem (0x400FC080, 0x0004 Bytes, ...) -- CPU_ReadMem(4 bytes @ 0x400FC080) - Data: 00 00 00 00  returns 0x00 (0000ms, 0887ms total)
T02F8 023:717 JLINK_ReadMem (0x400FC084, 0x0004 Bytes, ...) -- CPU_ReadMem(4 bytes @ 0x400FC084) - Data: 00 00 00 00  returns 0x00 (0001ms, 0888ms total)
T02F8 023:718 JLINK_ReadMem (0x400FC088, 0x0004 Bytes, ...) -- CPU_ReadMem(4 bytes @ 0x400FC088) - Data: 00 00 00 00  returns 0x00 (0002ms, 0890ms total)
T02F8 023:720 JLINK_ReadMem (0x400FC08C, 0x0004 Bytes, ...) -- CPU_ReadMem(4 bytes @ 0x400FC08C) - Data: 00 00 00 00  returns 0x00 (0001ms, 0891ms total)
T02F8 023:721 JLINK_ReadMem (0x400FC10C, 0x0004 Bytes, ...) -- CPU_ReadMem(4 bytes @ 0x400FC10C) - Data: 00 00 00 00  returns 0x00 (0001ms, 0892ms total)
T02F8 023:722 JLINK_ReadMem (0x400FC088, 0x0004 Bytes, ...) -- CPU_ReadMem(4 bytes @ 0x400FC088) - Data: 00 00 00 00  returns 0x00 (0001ms, 0893ms total)
T02F8 023:723 JLINK_ReadMem (0x400FC10C, 0x0004 Bytes, ...) -- CPU_ReadMem(4 bytes @ 0x400FC10C) - Data: 00 00 00 00  returns 0x00 (0001ms, 0894ms total)
T02F8 023:734 JLINK_ReadMem (0x000004BA, 0x0002 Bytes, ...) -- CPU_ReadMem(64 bytes @ 0x00000480) -- Updating C cache (64 bytes @ 0x00000480) -- Read from C cache (2 bytes @ 0x000004BA) - Data: 02 20  returns 0x00 (0001ms, 0895ms total)
T02F8 023:735 JLINK_ReadMem (0x000004BC, 0x003C Bytes, ...) -- CPU_ReadMem(64 bytes @ 0x000004C0) -- Updating C cache (64 bytes @ 0x000004C0) -- Read from C cache (60 bytes @ 0x000004BC) - Data: 2C 49 7C 31 08 60 30 48 2A 49 88 39 C1 F8 A8 01 ...  returns 0x00 (0001ms, 0896ms total)
T0B1C 024:150 JLINK_Step() -- Read from C cache (2 bytes @ 0x000004C2) -- CPU_ReadMem(4 bytes @ 0xE0001004) -- CPU_ReadMem(64 bytes @ 0x00000580) -- Updating C cache (64 bytes @ 0x00000580) -- Read from C cache (4 bytes @ 0x00000584) -- Simulated  returns 0x00 (0004ms, 0900ms total)
T0B1C 024:154 JLINK_ReadReg(R15 (PC))  returns 0x000004C4 (0000ms, 0900ms total)
T0B1C 024:154 JLINK_ReadReg(XPSR)  returns 0x01000000 (0001ms, 0901ms total)
T0B1C 024:155 JLINK_Step() -- Read from C cache (2 bytes @ 0x000004C4) -- CPU_ReadMem(64 bytes @ 0x00000540) -- Updating C cache (64 bytes @ 0x00000540) -- Read from C cache (4 bytes @ 0x00000570) -- Simulated  returns 0x00 (0000ms, 0901ms total)
T0B1C 024:155 JLINK_ReadReg(R15 (PC))  returns 0x000004C6 (0000ms, 0901ms total)
T0B1C 024:155 JLINK_ReadReg(XPSR)  returns 0x01000000 (0000ms, 0901ms total)
T0B1C 024:155 JLINK_Step() -- Read from C cache (2 bytes @ 0x000004C6) -- Simulated  returns 0x00 (0001ms, 0902ms total)
T0B1C 024:156 JLINK_ReadReg(R15 (PC))  returns 0x000004C8 (0000ms, 0902ms total)
T0B1C 024:156 JLINK_ReadReg(XPSR)  returns 0x21000000 (0000ms, 0902ms total)
T0B1C 024:156 JLINK_Step() -- Read from C cache (2 bytes @ 0x000004C8) -- Read from C cache (2 bytes @ 0x000004CA) -- Not simulated -- CPU_WriteMem(4 bytes @ 0xE0001004)  returns 0x00 (0007ms, 0909ms total)
T0B1C 024:163 JLINK_ReadReg(R15 (PC))  returns 0x000004CC (0000ms, 0909ms total)
T0B1C 024:163 JLINK_ReadReg(XPSR)  returns 0x21000000 (0000ms, 0909ms total)
T0B1C 024:163 JLINK_ReadReg(R0)  returns 0x01010000 (0000ms, 0909ms total)
T0B1C 024:163 JLINK_ReadReg(R1)  returns 0x400FC000 (0000ms, 0909ms total)
T0B1C 024:163 JLINK_ReadReg(R2)  returns 0x00000000 (0000ms, 0909ms total)
T0B1C 024:163 JLINK_ReadReg(R3)  returns 0x00000000 (0000ms, 0909ms total)
T0B1C 024:163 JLINK_ReadReg(R4)  returns 0x3456ABCD (0000ms, 0909ms total)
T0B1C 024:163 JLINK_ReadReg(R5)  returns 0x3456ABCD (0000ms, 0909ms total)
T0B1C 024:163 JLINK_ReadReg(R6)  returns 0x12345678 (0000ms, 0909ms total)
T0B1C 024:163 JLINK_ReadReg(R7)  returns 0x000039E2 (0000ms, 0909ms total)
T0B1C 024:163 JLINK_ReadReg(R8)  returns 0x00000000 (0000ms, 0909ms total)
T0B1C 024:163 JLINK_ReadReg(R9)  returns 0x100001DC (0000ms, 0909ms total)
T0B1C 024:163 JLINK_ReadReg(R10)  returns 0x00003A30 (0002ms, 0911ms total)
T0B1C 024:165 JLINK_ReadReg(R11)  returns 0x00000000 (0000ms, 0911ms total)
T0B1C 024:165 JLINK_ReadReg(R12)  returns 0x00000000 (0000ms, 0911ms total)
T0B1C 024:165 JLINK_ReadReg(R13 (SP))  returns 0x10007118 (0000ms, 0911ms total)
T0B1C 024:165 JLINK_ReadReg(R14)  returns 0x00000185 (0000ms, 0911ms total)
T0B1C 024:165 JLINK_ReadReg(R15 (PC))  returns 0x000004CC (0000ms, 0911ms total)
T0B1C 024:165 JLINK_ReadReg(XPSR)  returns 0x21000000 (0000ms, 0911ms total)
T0B1C 024:165 JLINK_ReadReg(MSP)  returns 0x10007118 (0000ms, 0911ms total)
T0B1C 024:165 JLINK_ReadReg(PSP)  returns 0x10000800 (0000ms, 0911ms total)
T0B1C 024:165 JLINK_ReadReg(CFBP)  returns 0x00000000 (0000ms, 0911ms total)
T02F8 024:165 JLINK_ReadMem (0x400FC080, 0x0004 Bytes, ...) -- CPU_ReadMem(4 bytes @ 0x400FC080) - Data: 00 00 00 00  returns 0x00 (0000ms, 0911ms total)
T02F8 024:165 JLINK_ReadMem (0x400FC084, 0x0004 Bytes, ...) -- CPU_ReadMem(4 bytes @ 0x400FC084) - Data: 00 00 00 00  returns 0x00 (0001ms, 0912ms total)
T02F8 024:166 JLINK_ReadMem (0x400FC088, 0x0004 Bytes, ...) -- CPU_ReadMem(4 bytes @ 0x400FC088) - Data: 00 00 00 00  returns 0x00 (0001ms, 0913ms total)
T02F8 024:167 JLINK_ReadMem (0x400FC08C, 0x0004 Bytes, ...) -- CPU_ReadMem(4 bytes @ 0x400FC08C) - Data: 00 00 00 00  returns 0x00 (0001ms, 0914ms total)
T02F8 024:168 JLINK_ReadMem (0x400FC10C, 0x0004 Bytes, ...) -- CPU_ReadMem(4 bytes @ 0x400FC10C) - Data: 00 00 00 00  returns 0x00 (0001ms, 0915ms total)
T02F8 024:169 JLINK_ReadMem (0x400FC088, 0x0004 Bytes, ...) -- CPU_ReadMem(4 bytes @ 0x400FC088) - Data: 00 00 00 00  returns 0x00 (0001ms, 0916ms total)
T02F8 024:170 JLINK_ReadMem (0x400FC10C, 0x0004 Bytes, ...) -- CPU_ReadMem(4 bytes @ 0x400FC10C) - Data: 00 00 00 00  returns 0x00 (0001ms, 0917ms total)
T02F8 024:181 JLINK_ReadMem (0x000004BE, 0x0002 Bytes, ...) -- CPU_ReadMem(64 bytes @ 0x00000480) -- Updating C cache (64 bytes @ 0x00000480) -- Read from C cache (2 bytes @ 0x000004BE) - Data: 7C 31  returns 0x00 (0001ms, 0918ms total)
T02F8 024:182 JLINK_ReadMem (0x000004C0, 0x003C Bytes, ...) -- CPU_ReadMem(64 bytes @ 0x000004C0) -- Updating C cache (64 bytes @ 0x000004C0) -- Read from C cache (60 bytes @ 0x000004C0) - Data: 08 60 30 48 2A 49 88 39 C1 F8 A8 01 4F F4 00 00 ...  returns 0x00 (0001ms, 0919ms total)
T0B1C 024:541 JLINK_Step() -- Read from C cache (2 bytes @ 0x000004CC) -- CPU_ReadMem(4 bytes @ 0xE0001004) -- Read from C cache (2 bytes @ 0x000004CE) -- Simulated  returns 0x00 (0004ms, 0923ms total)
T0B1C 024:545 JLINK_ReadReg(R15 (PC))  returns 0x000004D0 (0000ms, 0923ms total)
T0B1C 024:545 JLINK_ReadReg(XPSR)  returns 0x21000000 (0000ms, 0923ms total)
T0B1C 024:545 JLINK_Step() -- Read from C cache (2 bytes @ 0x000004D0) -- CPU_ReadMem(64 bytes @ 0x00000580) -- Updating C cache (64 bytes @ 0x00000580) -- Read from C cache (4 bytes @ 0x00000580) -- Simulated  returns 0x00 (0003ms, 0926ms total)
T0B1C 024:548 JLINK_ReadReg(R15 (PC))  returns 0x000004D2 (0000ms, 0926ms total)
T0B1C 024:548 JLINK_ReadReg(XPSR)  returns 0x21000000 (0000ms, 0926ms total)
T0B1C 024:548 JLINK_Step() -- Read from C cache (2 bytes @ 0x000004D2) -- Simulated  returns 0x00 (0000ms, 0926ms total)
T0B1C 024:548 JLINK_ReadReg(R15 (PC))  returns 0x000004D4 (0000ms, 0926ms total)
T0B1C 024:548 JLINK_ReadReg(XPSR)  returns 0x01000000 (0000ms, 0926ms total)
T0B1C 024:548 JLINK_Step() -- Read from C cache (2 bytes @ 0x000004D4) -- Not simulated -- CPU_WriteMem(4 bytes @ 0xE0001004)  returns 0x00 (0009ms, 0935ms total)
T0B1C 024:557 JLINK_ReadReg(R15 (PC))  returns 0x000004D6 (0001ms, 0936ms total)
T0B1C 024:558 JLINK_ReadReg(XPSR)  returns 0x01000000 (0000ms, 0936ms total)
T0B1C 024:558 JLINK_ReadReg(R0)  returns 0x00800000 (0000ms, 0936ms total)
T0B1C 024:558 JLINK_ReadReg(R1)  returns 0x400FC1AC (0000ms, 0936ms total)
T0B1C 024:558 JLINK_ReadReg(R2)  returns 0x00000000 (0000ms, 0936ms total)
T0B1C 024:558 JLINK_ReadReg(R3)  returns 0x00000000 (0000ms, 0936ms total)
T0B1C 024:559 JLINK_ReadReg(R4)  returns 0x3456ABCD (0000ms, 0937ms total)
T0B1C 024:559 JLINK_ReadReg(R5)  returns 0x3456ABCD (0000ms, 0937ms total)
T0B1C 024:559 JLINK_ReadReg(R6)  returns 0x12345678 (0000ms, 0937ms total)
